
T22B4 000:353 SEGGER J-Link V4.98e Log File (0002ms, 0275ms total)
T22B4 000:353 DLL Compiled: May  5 2015 11:00:52 (0002ms, 0275ms total)
T22B4 000:353 Logging started @ 2015-12-29 20:24 (0002ms, 0275ms total)
T22B4 000:355 JLINK_SetWarnOutHandler(...) (0000ms, 0275ms total)
T22B4 000:355 JLINK_OpenEx(...)
Firmware: J-Link ARM-OB STM32 compiled Aug 22 2012 19:52:04
Hardware: V7.00
S/N: 20090928
Feature(s): RDI,FlashDL,FlashBP,JFlash,GDBFull  returns O.K. (0271ms, 0546ms total)
T22B4 000:626 JLINK_SetErrorOutHandler(...) (0000ms, 0546ms total)
T22B4 000:626 JLINK_ExecCommand("ProjectFile = "C:\Users\ÕÅÈðÃô\Desktop\ÆôÌìµ÷ÊÔÓÃ³ÌÐò\BUTTERFLYÒ£¿Ø - CORTEX-M0°æ\USER\JLinkSettings.ini"", ...)  returns 0x00 (0001ms, 0547ms total)
T22B4 000:644 JLINK_ExecCommand("Device = STM32F030C8", ...)Device "STM32F030C8" selected.  returns 0x00 (0017ms, 0564ms total)
T22B4 000:661 JLINK_ExecCommand("DisableConnectionTimeout", ...)  returns 0x01 (0000ms, 0564ms total)
T22B4 000:661 JLINK_GetHardwareVersion()  returns 0x11170 (0000ms, 0564ms total)
T22B4 000:662 JLINK_GetDLLVersion()  returns 49805 (0000ms, 0564ms total)
T22B4 000:662 JLINK_GetFirmwareString(...) (0000ms, 0564ms total)
T22B4 000:717 JLINK_GetDLLVersion()  returns 49805 (0000ms, 0564ms total)
T22B4 000:717 JLINK_GetCompileDateTime() (0000ms, 0564ms total)
T22B4 000:723 JLINK_GetFirmwareString(...) (0000ms, 0564ms total)
T22B4 000:727 JLINK_GetHardwareVersion()  returns 0x11170 (0001ms, 0565ms total)
T22B4 000:752 JLINK_TIF_Select(JLINKARM_TIF_SWD)  returns 0x00 (0002ms, 0567ms total)
T22B4 000:754 JLINK_SetSpeed(5000) (0001ms, 0568ms total)
T22B4 000:755 JLINK_GetId() >0x108 TIF>Found SWD-DP with ID 0x0BB11477 >0x0D TIF> >0x28 TIF> >0x0D TIF> >0x28 TIF> >0x0D TIF> >0x21 TIF> >0x0D TIF> >0x28 TIF> >0x0D TIF> >0x28 TIF> >0x0D TIF> >0x28 TIF> >0x0D TIF> >0x21 TIF> >0x0D TIF> >0x21 TIF> >0x0D TIF> >0x28 TIF> >0x0D TIF> >0x21 TIF> >0x0D TIF> >0x21 TIF> >0x0D TIF> >0x28 TIF> >0x0D TIF> >0x21 TIF> >0x0D TIF> >0x21 TIF> >0x0D TIF> >0x28 TIF> >0x0D TIF> >0x28 TIF> >0x0D TIF> >0x28 TIF> >0x0D TIF> >0x21 TIF> >0x0D TIF> >0x21 TIF> >0x0D TIF>
 >0x28 TIF> >0x0D TIF> >0x28 TIF> >0x0D TIF> >0x28 TIF> >0x0D TIF> >0x21 TIF> >0x0D TIF> >0x21 TIF> >0x0D TIF> >0x28 TIF> >0x0D TIF> >0x28 TIF> >0x108 TIF>Found SWD-DP with ID 0x0BB11477 >0x0D TIF> >0x21 TIF> >0x0D TIF> >0x28 TIF> >0x0D TIF> >0x28 TIF> >0x0D TIF> >0x21 TIF> >0x0D TIF> >0x28 TIF> >0x0D TIF> >0x21 TIF> >0x0D TIF> >0x21 TIF> >0x0D TIF> >0x21 TIF> >0x0D TIF> >0x21 TIF> >0x0D TIF> >0x28 TIF> >0x0D TIF> >0x28 TIF> >0x0D TIF> >0x21 TIF> >0x0D TIF> >0x28 TIF> >0x0D TIF> >0x28 TIF> >0x0D TIF>
 >0x28 TIF> >0x0D TIF> >0x21 TIF> >0x0D TIF> >0x21 TIF> >0x0D TIF> >0x28 TIF> >0x0D TIF> >0x21 TIF> >0x0D TIF> >0x21 TIF>Found Cortex-M0 r0p0, Little endian. -- CPU_WriteMem(4 bytes @ 0xE0002000) -- CPU_ReadMem(4 bytes @ 0xE000EDF0) -- CPU_WriteMem(4 bytes @ 0xE000EDF0) -- CPU_ReadMem(4 bytes @ 0xE0002000)FPUnit: 4 code (BP) slots and 0 literal slots -- CPU_ReadMem(4 bytes @ 0xE000EDFC) -- CPU_WriteMem(4 bytes @ 0xE000EDFC) -- CPU_ReadMem(4 bytes @ 0xE0001000) -- CPU_WriteMem(4 bytes @ 0xE0001000)
CoreSight components:ROMTbl 0 @ E00FF000 -- CPU_ReadMem(16 bytes @ 0xE00FF000) -- CPU_ReadMem(16 bytes @ 0xE000EFF0) -- CPU_ReadMem(16 bytes @ 0xE000EFE0)ROMTbl 0 [0]: FFF0F000, CID: B105E00D, PID: 000BB008 SCS -- CPU_ReadMem(16 bytes @ 0xE0001FF0) -- CPU_ReadMem(16 bytes @ 0xE0001FE0)ROMTbl 0 [1]: FFF02000, CID: B105E00D, PID: 000BB00A DWT -- CPU_ReadMem(16 bytes @ 0xE0002FF0) -- CPU_ReadMem(16 bytes @ 0xE0002FE0)ROMTbl 0 [2]: FFF03000, CID: B105E00D, PID: 000BB00B FPB
 -- CPU_WriteMem(8192 bytes @ 0x20000000) >0x0D TIF> >0x21 TIF>  returns 0x0BB11477 (0239ms, 0807ms total)
T22B4 000:994 JLINK_GetDLLVersion()  returns 49805 (0000ms, 0807ms total)
T22B4 000:994 JLINK_CORE_GetFound()  returns 0x60000FF (0000ms, 0807ms total)
T22B4 000:994 JLINK_GetDebugInfo(0x100) -- Value=0xE00FF003  returns 0x00 (0000ms, 0807ms total)
T22B4 001:000 JLINK_ReadMem (0xE00FF000, 0x0020 Bytes, ...) -- CPU_ReadMem(32 bytes @ 0xE00FF000) - Data: 03 F0 F0 FF 03 20 F0 FF 03 30 F0 FF 00 00 00 00 ...  returns 0x00 (0002ms, 0809ms total)
T22B4 001:002 JLINK_ReadMem (0xE000EFF0, 0x0010 Bytes, ...) -- CPU_ReadMem(16 bytes @ 0xE000EFF0) - Data: 0D 00 00 00 E0 00 00 00 05 00 00 00 B1 00 00 00  returns 0x00 (0002ms, 0811ms total)
T22B4 001:004 JLINK_ReadMem (0xE000EFD0, 0x0020 Bytes, ...) -- CPU_ReadMem(32 bytes @ 0xE000EFD0) - Data: 04 00 00 00 00 00 00 00 00 00 00 00 00 00 00 00 ...  returns 0x00 (0001ms, 0812ms total)
T22B4 001:005 JLINK_ReadMem (0xE0001FF0, 0x0010 Bytes, ...) -- CPU_ReadMem(16 bytes @ 0xE0001FF0) - Data: 0D 00 00 00 E0 00 00 00 05 00 00 00 B1 00 00 00  returns 0x00 (0001ms, 0813ms total)
T22B4 001:006 JLINK_ReadMem (0xE0001FD0, 0x0020 Bytes, ...) -- CPU_ReadMem(32 bytes @ 0xE0001FD0) - Data: 04 00 00 00 00 00 00 00 00 00 00 00 00 00 00 00 ...  returns 0x00 (0002ms, 0815ms total)
T22B4 001:008 JLINK_ReadMem (0xE0002FF0, 0x0010 Bytes, ...) -- CPU_ReadMem(16 bytes @ 0xE0002FF0) - Data: 0D 00 00 00 E0 00 00 00 05 00 00 00 B1 00 00 00  returns 0x00 (0001ms, 0816ms total)
T22B4 001:009 JLINK_ReadMem (0xE0002FD0, 0x0020 Bytes, ...) -- CPU_ReadMem(32 bytes @ 0xE0002FD0) - Data: 04 00 00 00 00 00 00 00 00 00 00 00 00 00 00 00 ...  returns 0x00 (0002ms, 0818ms total)
T22B4 001:011 JLINK_ReadMemU32(0xE000ED00, 0x0001 Items, ...) -- CPU_ReadMem(4 bytes @ 0xE000ED00) - Data: 00 C2 0C 41  returns 0x01 (0000ms, 0818ms total)
T22B4 001:012 JLINK_SetResetType(JLINKARM_RESET_TYPE_NORMAL)  returns JLINKARM_RESET_TYPE_NORMAL (0000ms, 0819ms total)
T22B4 001:012 JLINK_Reset() -- CPU_ReadMem(4 bytes @ 0x20000000) -- CPU_WriteMem(4 bytes @ 0x20000000) -- CPU_WriteMem(4 bytes @ 0xE000EDF0) -- CPU_WriteMem(4 bytes @ 0xE000EDFC) >0x35 TIF> -- CPU_WriteMem(4 bytes @ 0xE000ED0C) -- CPU_ReadMem(4 bytes @ 0xE000EDF0) -- CPU_ReadMem(4 bytes @ 0xE000EDF0) -- CPU_WriteMem(4 bytes @ 0xE000EDF0) -- CPU_WriteMem(4 bytes @ 0xE000EDFC) -- CPU is running -- CPU_ReadMem(4 bytes @ 0xE000EDF0) -- CPU_WriteMem(4 bytes @ 0xE0002000) -- CPU_ReadMem(4 bytes @ 0xE000EDFC)
 -- CPU_ReadMem(4 bytes @ 0xE0001000) -- CPU_WriteMem(4 bytes @ 0xE0001000) (0028ms, 0847ms total)
T22B4 001:040 JLINK_Halt()  returns 0x00 (0000ms, 0847ms total)
T22B4 001:040 JLINK_IsHalted()  returns TRUE (0000ms, 0847ms total)
T22B4 001:040 JLINK_ReadMemU32(0xE000EDF0, 0x0001 Items, ...) -- CPU_ReadMem(4 bytes @ 0xE000EDF0) - Data: 03 00 03 00  returns 0x01 (0001ms, 0848ms total)
T22B4 001:041 JLINK_WriteU32(0xE000EDF0, 0xA05F0003) -- CPU_WriteMem(4 bytes @ 0xE000EDF0)  returns 0x00 (0001ms, 0849ms total)
T22B4 001:043 JLINK_WriteU32(0xE000EDFC, 0x01000000) -- CPU_WriteMem(4 bytes @ 0xE000EDFC)  returns 0x00 (0001ms, 0850ms total)
T22B4 001:071 JLINK_GetHWStatus(...)  returns 0x00 (0001ms, 0851ms total)
T22B4 001:092 JLINK_GetNumBPUnits(Type = 0xFFFFFF00)  returns 0x04 (0000ms, 0851ms total)
T22B4 001:092 JLINK_GetNumBPUnits(Type = 0xF0)  returns 0x2000 (0000ms, 0851ms total)
T22B4 001:092 JLINK_GetNumWPUnits()  returns 0x02 (0000ms, 0851ms total)
T22B4 001:113 JLINK_GetSpeed()  returns 0xFA0 (0000ms, 0851ms total)
T22B4 001:126 JLINK_ReadMemU32(0xE000E004, 0x0001 Items, ...) -- CPU_ReadMem(4 bytes @ 0xE000E004) - Data: 00 00 00 00  returns 0x01 (0001ms, 0852ms total)
T22B4 001:127 JLINK_Halt()  returns 0x00 (0000ms, 0852ms total)
T22B4 001:127 JLINK_IsHalted()  returns TRUE (0000ms, 0852ms total)
T22B4 001:133 JLINK_WriteMem(0x20000000, 0x0170 Bytes, ...) - Data: 00 BE 0A E0 0D 78 2D 06 68 40 08 24 40 00 00 D3 ... -- CPU_WriteMem(368 bytes @ 0x20000000)  returns 0x170 (0006ms, 0858ms total)
T22B4 001:139 JLINK_WriteReg(R0, 0x08000000)  returns 0x00 (0001ms, 0859ms total)
T22B4 001:140 JLINK_WriteReg(R1, 0x007A1200)  returns 0x00 (0000ms, 0859ms total)
T22B4 001:140 JLINK_WriteReg(R2, 0x00000001)  returns 0x00 (0000ms, 0859ms total)
T22B4 001:140 JLINK_WriteReg(R3, 0x00000000)  returns 0x00 (0000ms, 0859ms total)
T22B4 001:140 JLINK_WriteReg(R4, 0x00000000)  returns 0x00 (0000ms, 0859ms total)
T22B4 001:140 JLINK_WriteReg(R5, 0x00000000)  returns 0x00 (0000ms, 0859ms total)
T22B4 001:140 JLINK_WriteReg(R6, 0x00000000)  returns 0x00 (0000ms, 0859ms total)
T22B4 001:140 JLINK_WriteReg(R7, 0x00000000)  returns 0x00 (0000ms, 0859ms total)
T22B4 001:140 JLINK_WriteReg(R8, 0x00000000)  returns 0x00 (0000ms, 0859ms total)
T22B4 001:140 JLINK_WriteReg(R9, 0x2000016C)  returns 0x00 (0000ms, 0859ms total)
T22B4 001:140 JLINK_WriteReg(R10, 0x00000000)  returns 0x00 (0000ms, 0859ms total)
T22B4 001:140 JLINK_WriteReg(R11, 0x00000000)  returns 0x00 (0000ms, 0859ms total)
T22B4 001:140 JLINK_WriteReg(R12, 0x00000000)  returns 0x00 (0000ms, 0859ms total)
T22B4 001:140 JLINK_WriteReg(R13 (SP), 0x20000800)  returns 0x00 (0000ms, 0859ms total)
T22B4 001:140 JLINK_WriteReg(R14, 0x20000001)  returns 0x00 (0000ms, 0859ms total)
T22B4 001:140 JLINK_WriteReg(R15 (PC), 0x20000038)  returns 0x00 (0000ms, 0859ms total)
T22B4 001:140 JLINK_WriteReg(XPSR, 0x01000000)  returns 0x00 (0000ms, 0859ms total)
T22B4 001:140 JLINK_WriteReg(MSP, 0x20000800)  returns 0x00 (0000ms, 0859ms total)
T22B4 001:140 JLINK_WriteReg(PSP, 0x20000800)  returns 0x00 (0000ms, 0859ms total)
T22B4 001:141 JLINK_WriteReg(CFBP, 0x00000000)  returns 0x00 (0000ms, 0860ms total)
T22B4 001:141 JLINK_SetBPEx(Addr = 0x20000000, Type = 0xFFFFFFF2) -- CPU_ReadMem(2 bytes @ 0x20000000)  returns 0x00000001 (0001ms, 0861ms total)
T22B4 001:142 JLINK_Go() -- CPU_WriteMem(2 bytes @ 0x20000000) -- CPU_ReadMem(4 bytes @ 0xE0001000) -- CPU_WriteMem(4 bytes @ 0xE0001000) -- CPU_WriteMem(4 bytes @ 0xE0002008) -- CPU_WriteMem(4 bytes @ 0xE000200C) -- CPU_WriteMem(4 bytes @ 0xE0002010) -- CPU_WriteMem(4 bytes @ 0xE0002014) -- CPU_WriteMem(4 bytes @ 0xE0001004) (0009ms, 0870ms total)
T22B4 001:151 JLINK_IsHalted() -- CPU_ReadMem(2 bytes @ 0x20000000)  returns TRUE (0005ms, 0875ms total)
T22B4 001:156 JLINK_ReadReg(R15 (PC))  returns 0x20000000 (0000ms, 0870ms total)
T22B4 001:156 JLINK_ClrBPEx(BPHandle = 0x00000001)  returns 0x00 (0000ms, 0870ms total)
T22B4 001:156 JLINK_ReadReg(R0)  returns 0x00000000 (0001ms, 0871ms total)
T22B4 001:157 JLINK_WriteReg(R0, 0x08000000)  returns 0x00 (0000ms, 0871ms total)
T22B4 001:157 JLINK_WriteReg(R1, 0x00000400)  returns 0x00 (0000ms, 0871ms total)
T22B4 001:157 JLINK_WriteReg(R2, 0x000000FF)  returns 0x00 (0000ms, 0871ms total)
T22B4 001:157 JLINK_WriteReg(R3, 0x00000000)  returns 0x00 (0000ms, 0871ms total)
T22B4 001:157 JLINK_WriteReg(R4, 0x00000000)  returns 0x00 (0000ms, 0871ms total)
T22B4 001:157 JLINK_WriteReg(R5, 0x00000000)  returns 0x00 (0001ms, 0872ms total)
T22B4 001:158 JLINK_WriteReg(R6, 0x00000000)  returns 0x00 (0000ms, 0872ms total)
T22B4 001:158 JLINK_WriteReg(R7, 0x00000000)  returns 0x00 (0000ms, 0872ms total)
T22B4 001:158 JLINK_WriteReg(R8, 0x00000000)  returns 0x00 (0000ms, 0872ms total)
T22B4 001:158 JLINK_WriteReg(R9, 0x2000016C)  returns 0x00 (0000ms, 0872ms total)
T22B4 001:158 JLINK_WriteReg(R10, 0x00000000)  returns 0x00 (0000ms, 0872ms total)
T22B4 001:158 JLINK_WriteReg(R11, 0x00000000)  returns 0x00 (0000ms, 0872ms total)
T22B4 001:158 JLINK_WriteReg(R12, 0x00000000)  returns 0x00 (0000ms, 0872ms total)
T22B4 001:158 JLINK_WriteReg(R13 (SP), 0x20000800)  returns 0x00 (0000ms, 0872ms total)
T22B4 001:158 JLINK_WriteReg(R14, 0x20000001)  returns 0x00 (0000ms, 0872ms total)
T22B4 001:158 JLINK_WriteReg(R15 (PC), 0x20000020)  returns 0x00 (0000ms, 0872ms total)
T22B4 001:158 JLINK_WriteReg(XPSR, 0x01000000)  returns 0x00 (0000ms, 0872ms total)
T22B4 001:158 JLINK_WriteReg(MSP, 0x20000800)  returns 0x00 (0000ms, 0872ms total)
T22B4 001:158 JLINK_WriteReg(PSP, 0x20000800)  returns 0x00 (0000ms, 0872ms total)
T22B4 001:158 JLINK_WriteReg(CFBP, 0x00000000)  returns 0x00 (0000ms, 0872ms total)
T22B4 001:158 JLINK_SetBPEx(Addr = 0x20000000, Type = 0xFFFFFFF2)  returns 0x00000002 (0000ms, 0872ms total)
T22B4 001:158 JLINK_Go() -- CPU_ReadMem(4 bytes @ 0xE0001000) -- CPU_WriteMem(4 bytes @ 0xE0001000) (0005ms, 0877ms total)
T22B4 001:163 JLINK_IsHalted()  returns FALSE (0001ms, 0878ms total)
T22B4 001:292 JLINK_IsHalted() -- CPU_ReadMem(2 bytes @ 0x20000000)  returns TRUE (0004ms, 0881ms total)
T22B4 001:296 JLINK_ReadReg(R15 (PC))  returns 0x20000000 (0001ms, 0878ms total)
T22B4 001:297 JLINK_ClrBPEx(BPHandle = 0x00000002)  returns 0x00 (0000ms, 0878ms total)
T22B4 001:297 JLINK_ReadReg(R0)  returns 0x00000000 (0000ms, 0878ms total)
T22B4 001:298 JLINK_WriteReg(R0, 0x08000400)  returns 0x00 (0000ms, 0878ms total)
T22B4 001:298 JLINK_WriteReg(R1, 0x00000400)  returns 0x00 (0000ms, 0878ms total)
T22B4 001:298 JLINK_WriteReg(R2, 0x000000FF)  returns 0x00 (0000ms, 0878ms total)
T22B4 001:298 JLINK_WriteReg(R3, 0x00000000)  returns 0x00 (0000ms, 0878ms total)
T22B4 001:298 JLINK_WriteReg(R4, 0x00000000)  returns 0x00 (0000ms, 0878ms total)
T22B4 001:298 JLINK_WriteReg(R5, 0x00000000)  returns 0x00 (0000ms, 0878ms total)
T22B4 001:298 JLINK_WriteReg(R6, 0x00000000)  returns 0x00 (0000ms, 0878ms total)
T22B4 001:298 JLINK_WriteReg(R7, 0x00000000)  returns 0x00 (0000ms, 0878ms total)
T22B4 001:298 JLINK_WriteReg(R8, 0x00000000)  returns 0x00 (0000ms, 0878ms total)
T22B4 001:298 JLINK_WriteReg(R9, 0x2000016C)  returns 0x00 (0000ms, 0878ms total)
T22B4 001:298 JLINK_WriteReg(R10, 0x00000000)  returns 0x00 (0000ms, 0878ms total)
T22B4 001:298 JLINK_WriteReg(R11, 0x00000000)  returns 0x00 (0000ms, 0878ms total)
T22B4 001:298 JLINK_WriteReg(R12, 0x00000000)  returns 0x00 (0000ms, 0878ms total)
T22B4 001:298 JLINK_WriteReg(R13 (SP), 0x20000800)  returns 0x00 (0000ms, 0878ms total)
T22B4 001:298 JLINK_WriteReg(R14, 0x20000001)  returns 0x00 (0000ms, 0878ms total)
T22B4 001:298 JLINK_WriteReg(R15 (PC), 0x20000020)  returns 0x00 (0000ms, 0878ms total)
T22B4 001:298 JLINK_WriteReg(XPSR, 0x01000000)  returns 0x00 (0000ms, 0878ms total)
T22B4 001:298 JLINK_WriteReg(MSP, 0x20000800)  returns 0x00 (0000ms, 0878ms total)
T22B4 001:298 JLINK_WriteReg(PSP, 0x20000800)  returns 0x00 (0000ms, 0878ms total)
T22B4 001:298 JLINK_WriteReg(CFBP, 0x00000000)  returns 0x00 (0000ms, 0878ms total)
T22B4 001:298 JLINK_SetBPEx(Addr = 0x20000000, Type = 0xFFFFFFF2)  returns 0x00000003 (0001ms, 0879ms total)
T22B4 001:299 JLINK_Go() -- CPU_ReadMem(4 bytes @ 0xE0001000) -- CPU_WriteMem(4 bytes @ 0xE0001000) (0004ms, 0883ms total)
T22B4 001:303 JLINK_IsHalted()  returns FALSE (0001ms, 0884ms total)
T22B4 001:309 JLINK_IsHalted() -- CPU_ReadMem(2 bytes @ 0x20000000)  returns TRUE (0005ms, 0888ms total)
T22B4 001:314 JLINK_ReadReg(R15 (PC))  returns 0x20000000 (0000ms, 0883ms total)
T22B4 001:314 JLINK_ClrBPEx(BPHandle = 0x00000003)  returns 0x00 (0000ms, 0883ms total)
T22B4 001:314 JLINK_ReadReg(R0)  returns 0x00000000 (0000ms, 0883ms total)
T22B4 001:315 JLINK_WriteReg(R0, 0x08000800)  returns 0x00 (0000ms, 0883ms total)
T22B4 001:315 JLINK_WriteReg(R1, 0x00000400)  returns 0x00 (0000ms, 0883ms total)
T22B4 001:315 JLINK_WriteReg(R2, 0x000000FF)  returns 0x00 (0000ms, 0883ms total)
T22B4 001:315 JLINK_WriteReg(R3, 0x00000000)  returns 0x00 (0000ms, 0883ms total)
T22B4 001:315 JLINK_WriteReg(R4, 0x00000000)  returns 0x00 (0000ms, 0883ms total)
T22B4 001:315 JLINK_WriteReg(R5, 0x00000000)  returns 0x00 (0000ms, 0883ms total)
T22B4 001:315 JLINK_WriteReg(R6, 0x00000000)  returns 0x00 (0000ms, 0883ms total)
T22B4 001:315 JLINK_WriteReg(R7, 0x00000000)  returns 0x00 (0000ms, 0883ms total)
T22B4 001:315 JLINK_WriteReg(R8, 0x00000000)  returns 0x00 (0000ms, 0883ms total)
T22B4 001:315 JLINK_WriteReg(R9, 0x2000016C)  returns 0x00 (0000ms, 0883ms total)
T22B4 001:315 JLINK_WriteReg(R10, 0x00000000)  returns 0x00 (0000ms, 0883ms total)
T22B4 001:315 JLINK_WriteReg(R11, 0x00000000)  returns 0x00 (0000ms, 0883ms total)
T22B4 001:315 JLINK_WriteReg(R12, 0x00000000)  returns 0x00 (0000ms, 0883ms total)
T22B4 001:315 JLINK_WriteReg(R13 (SP), 0x20000800)  returns 0x00 (0000ms, 0883ms total)
T22B4 001:315 JLINK_WriteReg(R14, 0x20000001)  returns 0x00 (0000ms, 0883ms total)
T22B4 001:315 JLINK_WriteReg(R15 (PC), 0x20000020)  returns 0x00 (0000ms, 0883ms total)
T22B4 001:315 JLINK_WriteReg(XPSR, 0x01000000)  returns 0x00 (0001ms, 0884ms total)
T22B4 001:316 JLINK_WriteReg(MSP, 0x20000800)  returns 0x00 (0000ms, 0884ms total)
T22B4 001:316 JLINK_WriteReg(PSP, 0x20000800)  returns 0x00 (0000ms, 0884ms total)
T22B4 001:316 JLINK_WriteReg(CFBP, 0x00000000)  returns 0x00 (0000ms, 0884ms total)
T22B4 001:316 JLINK_SetBPEx(Addr = 0x20000000, Type = 0xFFFFFFF2)  returns 0x00000004 (0000ms, 0884ms total)
T22B4 001:316 JLINK_Go() -- CPU_ReadMem(4 bytes @ 0xE0001000) -- CPU_WriteMem(4 bytes @ 0xE0001000) (0004ms, 0888ms total)
T22B4 001:320 JLINK_IsHalted()  returns FALSE (0001ms, 0889ms total)
T22B4 001:334 JLINK_IsHalted() -- CPU_ReadMem(2 bytes @ 0x20000000)  returns TRUE (0005ms, 0893ms total)
T22B4 001:339 JLINK_ReadReg(R15 (PC))  returns 0x20000000 (0000ms, 0888ms total)
T22B4 001:339 JLINK_ClrBPEx(BPHandle = 0x00000004)  returns 0x00 (0000ms, 0888ms total)
T22B4 001:339 JLINK_ReadReg(R0)  returns 0x00000000 (0000ms, 0888ms total)
T22B4 001:340 JLINK_WriteReg(R0, 0x08000C00)  returns 0x00 (0000ms, 0888ms total)
T22B4 001:340 JLINK_WriteReg(R1, 0x00000400)  returns 0x00 (0000ms, 0888ms total)
T22B4 001:340 JLINK_WriteReg(R2, 0x000000FF)  returns 0x00 (0000ms, 0888ms total)
T22B4 001:340 JLINK_WriteReg(R3, 0x00000000)  returns 0x00 (0000ms, 0888ms total)
T22B4 001:340 JLINK_WriteReg(R4, 0x00000000)  returns 0x00 (0000ms, 0888ms total)
T22B4 001:340 JLINK_WriteReg(R5, 0x00000000)  returns 0x00 (0000ms, 0888ms total)
T22B4 001:340 JLINK_WriteReg(R6, 0x00000000)  returns 0x00 (0000ms, 0888ms total)
T22B4 001:340 JLINK_WriteReg(R7, 0x00000000)  returns 0x00 (0000ms, 0888ms total)
T22B4 001:340 JLINK_WriteReg(R8, 0x00000000)  returns 0x00 (0000ms, 0888ms total)
T22B4 001:340 JLINK_WriteReg(R9, 0x2000016C)  returns 0x00 (0000ms, 0888ms total)
T22B4 001:340 JLINK_WriteReg(R10, 0x00000000)  returns 0x00 (0000ms, 0888ms total)
T22B4 001:340 JLINK_WriteReg(R11, 0x00000000)  returns 0x00 (0000ms, 0888ms total)
T22B4 001:340 JLINK_WriteReg(R12, 0x00000000)  returns 0x00 (0000ms, 0888ms total)
T22B4 001:340 JLINK_WriteReg(R13 (SP), 0x20000800)  returns 0x00 (0000ms, 0888ms total)
T22B4 001:340 JLINK_WriteReg(R14, 0x20000001)  returns 0x00 (0000ms, 0888ms total)
T22B4 001:340 JLINK_WriteReg(R15 (PC), 0x20000020)  returns 0x00 (0000ms, 0888ms total)
T22B4 001:340 JLINK_WriteReg(XPSR, 0x01000000)  returns 0x00 (0000ms, 0888ms total)
T22B4 001:340 JLINK_WriteReg(MSP, 0x20000800)  returns 0x00 (0000ms, 0888ms total)
T22B4 001:340 JLINK_WriteReg(PSP, 0x20000800)  returns 0x00 (0000ms, 0888ms total)
T22B4 001:340 JLINK_WriteReg(CFBP, 0x00000000)  returns 0x00 (0000ms, 0888ms total)
T22B4 001:340 JLINK_SetBPEx(Addr = 0x20000000, Type = 0xFFFFFFF2)  returns 0x00000005 (0000ms, 0888ms total)
T22B4 001:341 JLINK_Go() -- CPU_ReadMem(4 bytes @ 0xE0001000) -- CPU_WriteMem(4 bytes @ 0xE0001000) (0004ms, 0893ms total)
T22B4 001:345 JLINK_IsHalted()  returns FALSE (0000ms, 0893ms total)
T22B4 001:381 JLINK_IsHalted() -- CPU_ReadMem(2 bytes @ 0x20000000)  returns TRUE (0004ms, 0897ms total)
T22B4 001:385 JLINK_ReadReg(R15 (PC))  returns 0x20000000 (0000ms, 0893ms total)
T22B4 001:385 JLINK_ClrBPEx(BPHandle = 0x00000005)  returns 0x00 (0000ms, 0893ms total)
T22B4 001:385 JLINK_ReadReg(R0)  returns 0x00000000 (0000ms, 0893ms total)
T22B4 001:385 JLINK_WriteReg(R0, 0x08001000)  returns 0x00 (0000ms, 0893ms total)
T22B4 001:385 JLINK_WriteReg(R1, 0x00000400)  returns 0x00 (0000ms, 0893ms total)
T22B4 001:385 JLINK_WriteReg(R2, 0x000000FF)  returns 0x00 (0000ms, 0893ms total)
T22B4 001:385 JLINK_WriteReg(R3, 0x00000000)  returns 0x00 (0000ms, 0893ms total)
T22B4 001:385 JLINK_WriteReg(R4, 0x00000000)  returns 0x00 (0001ms, 0894ms total)
T22B4 001:386 JLINK_WriteReg(R5, 0x00000000)  returns 0x00 (0000ms, 0894ms total)
T22B4 001:386 JLINK_WriteReg(R6, 0x00000000)  returns 0x00 (0000ms, 0894ms total)
T22B4 001:386 JLINK_WriteReg(R7, 0x00000000)  returns 0x00 (0000ms, 0894ms total)
T22B4 001:386 JLINK_WriteReg(R8, 0x00000000)  returns 0x00 (0000ms, 0894ms total)
T22B4 001:386 JLINK_WriteReg(R9, 0x2000016C)  returns 0x00 (0000ms, 0894ms total)
T22B4 001:386 JLINK_WriteReg(R10, 0x00000000)  returns 0x00 (0000ms, 0894ms total)
T22B4 001:386 JLINK_WriteReg(R11, 0x00000000)  returns 0x00 (0000ms, 0894ms total)
T22B4 001:386 JLINK_WriteReg(R12, 0x00000000)  returns 0x00 (0000ms, 0894ms total)
T22B4 001:386 JLINK_WriteReg(R13 (SP), 0x20000800)  returns 0x00 (0000ms, 0894ms total)
T22B4 001:386 JLINK_WriteReg(R14, 0x20000001)  returns 0x00 (0000ms, 0894ms total)
T22B4 001:386 JLINK_WriteReg(R15 (PC), 0x20000020)  returns 0x00 (0000ms, 0894ms total)
T22B4 001:386 JLINK_WriteReg(XPSR, 0x01000000)  returns 0x00 (0000ms, 0894ms total)
T22B4 001:386 JLINK_WriteReg(MSP, 0x20000800)  returns 0x00 (0000ms, 0894ms total)
T22B4 001:386 JLINK_WriteReg(PSP, 0x20000800)  returns 0x00 (0000ms, 0894ms total)
T22B4 001:386 JLINK_WriteReg(CFBP, 0x00000000)  returns 0x00 (0000ms, 0894ms total)
T22B4 001:386 JLINK_SetBPEx(Addr = 0x20000000, Type = 0xFFFFFFF2)  returns 0x00000006 (0000ms, 0894ms total)
T22B4 001:386 JLINK_Go() -- CPU_ReadMem(4 bytes @ 0xE0001000) -- CPU_WriteMem(4 bytes @ 0xE0001000) (0004ms, 0898ms total)
T22B4 001:390 JLINK_IsHalted()  returns FALSE (0001ms, 0899ms total)
T22B4 001:393 JLINK_IsHalted() -- CPU_ReadMem(2 bytes @ 0x20000000)  returns TRUE (0004ms, 0902ms total)
T22B4 001:397 JLINK_ReadReg(R15 (PC))  returns 0x20000000 (0000ms, 0898ms total)
T22B4 001:397 JLINK_ClrBPEx(BPHandle = 0x00000006)  returns 0x00 (0000ms, 0898ms total)
T22B4 001:397 JLINK_ReadReg(R0)  returns 0x00000000 (0000ms, 0898ms total)
T22B4 001:398 JLINK_WriteReg(R0, 0x08001400)  returns 0x00 (0000ms, 0898ms total)
T22B4 001:398 JLINK_WriteReg(R1, 0x00000400)  returns 0x00 (0000ms, 0898ms total)
T22B4 001:398 JLINK_WriteReg(R2, 0x000000FF)  returns 0x00 (0000ms, 0898ms total)
T22B4 001:398 JLINK_WriteReg(R3, 0x00000000)  returns 0x00 (0000ms, 0898ms total)
T22B4 001:398 JLINK_WriteReg(R4, 0x00000000)  returns 0x00 (0000ms, 0898ms total)
T22B4 001:399 JLINK_WriteReg(R5, 0x00000000)  returns 0x00 (0000ms, 0898ms total)
T22B4 001:399 JLINK_WriteReg(R6, 0x00000000)  returns 0x00 (0000ms, 0898ms total)
T22B4 001:399 JLINK_WriteReg(R7, 0x00000000)  returns 0x00 (0000ms, 0898ms total)
T22B4 001:399 JLINK_WriteReg(R8, 0x00000000)  returns 0x00 (0000ms, 0898ms total)
T22B4 001:399 JLINK_WriteReg(R9, 0x2000016C)  returns 0x00 (0000ms, 0898ms total)
T22B4 001:399 JLINK_WriteReg(R10, 0x00000000)  returns 0x00 (0000ms, 0898ms total)
T22B4 001:399 JLINK_WriteReg(R11, 0x00000000)  returns 0x00 (0000ms, 0898ms total)
T22B4 001:399 JLINK_WriteReg(R12, 0x00000000)  returns 0x00 (0000ms, 0898ms total)
T22B4 001:399 JLINK_WriteReg(R13 (SP), 0x20000800)  returns 0x00 (0000ms, 0898ms total)
T22B4 001:399 JLINK_WriteReg(R14, 0x20000001)  returns 0x00 (0000ms, 0898ms total)
T22B4 001:399 JLINK_WriteReg(R15 (PC), 0x20000020)  returns 0x00 (0000ms, 0898ms total)
T22B4 001:399 JLINK_WriteReg(XPSR, 0x01000000)  returns 0x00 (0000ms, 0898ms total)
T22B4 001:399 JLINK_WriteReg(MSP, 0x20000800)  returns 0x00 (0000ms, 0898ms total)
T22B4 001:399 JLINK_WriteReg(PSP, 0x20000800)  returns 0x00 (0000ms, 0898ms total)
T22B4 001:399 JLINK_WriteReg(CFBP, 0x00000000)  returns 0x00 (0000ms, 0898ms total)
T22B4 001:399 JLINK_SetBPEx(Addr = 0x20000000, Type = 0xFFFFFFF2)  returns 0x00000007 (0000ms, 0898ms total)
T22B4 001:399 JLINK_Go() -- CPU_ReadMem(4 bytes @ 0xE0001000) -- CPU_WriteMem(4 bytes @ 0xE0001000) (0004ms, 0902ms total)
T22B4 001:403 JLINK_IsHalted()  returns FALSE (0001ms, 0903ms total)
T22B4 001:407 JLINK_IsHalted() -- CPU_ReadMem(2 bytes @ 0x20000000)  returns TRUE (0004ms, 0906ms total)
T22B4 001:411 JLINK_ReadReg(R15 (PC))  returns 0x20000000 (0000ms, 0902ms total)
T22B4 001:411 JLINK_ClrBPEx(BPHandle = 0x00000007)  returns 0x00 (0000ms, 0902ms total)
T22B4 001:411 JLINK_ReadReg(R0)  returns 0x00000000 (0000ms, 0902ms total)
T22B4 001:411 JLINK_WriteReg(R0, 0x08001800)  returns 0x00 (0000ms, 0902ms total)
T22B4 001:411 JLINK_WriteReg(R1, 0x00000400)  returns 0x00 (0000ms, 0902ms total)
T22B4 001:411 JLINK_WriteReg(R2, 0x000000FF)  returns 0x00 (0000ms, 0902ms total)
T22B4 001:411 JLINK_WriteReg(R3, 0x00000000)  returns 0x00 (0000ms, 0902ms total)
T22B4 001:411 JLINK_WriteReg(R4, 0x00000000)  returns 0x00 (0000ms, 0902ms total)
T22B4 001:411 JLINK_WriteReg(R5, 0x00000000)  returns 0x00 (0001ms, 0903ms total)
T22B4 001:412 JLINK_WriteReg(R6, 0x00000000)  returns 0x00 (0000ms, 0903ms total)
T22B4 001:412 JLINK_WriteReg(R7, 0x00000000)  returns 0x00 (0000ms, 0903ms total)
T22B4 001:412 JLINK_WriteReg(R8, 0x00000000)  returns 0x00 (0000ms, 0903ms total)
T22B4 001:412 JLINK_WriteReg(R9, 0x2000016C)  returns 0x00 (0000ms, 0903ms total)
T22B4 001:412 JLINK_WriteReg(R10, 0x00000000)  returns 0x00 (0000ms, 0903ms total)
T22B4 001:412 JLINK_WriteReg(R11, 0x00000000)  returns 0x00 (0000ms, 0903ms total)
T22B4 001:412 JLINK_WriteReg(R12, 0x00000000)  returns 0x00 (0000ms, 0903ms total)
T22B4 001:412 JLINK_WriteReg(R13 (SP), 0x20000800)  returns 0x00 (0000ms, 0903ms total)
T22B4 001:412 JLINK_WriteReg(R14, 0x20000001)  returns 0x00 (0000ms, 0903ms total)
T22B4 001:412 JLINK_WriteReg(R15 (PC), 0x20000020)  returns 0x00 (0000ms, 0903ms total)
T22B4 001:412 JLINK_WriteReg(XPSR, 0x01000000)  returns 0x00 (0000ms, 0903ms total)
T22B4 001:412 JLINK_WriteReg(MSP, 0x20000800)  returns 0x00 (0000ms, 0903ms total)
T22B4 001:412 JLINK_WriteReg(PSP, 0x20000800)  returns 0x00 (0000ms, 0903ms total)
T22B4 001:412 JLINK_WriteReg(CFBP, 0x00000000)  returns 0x00 (0000ms, 0903ms total)
T22B4 001:412 JLINK_SetBPEx(Addr = 0x20000000, Type = 0xFFFFFFF2)  returns 0x00000008 (0000ms, 0903ms total)
T22B4 001:412 JLINK_Go() -- CPU_ReadMem(4 bytes @ 0xE0001000) -- CPU_WriteMem(4 bytes @ 0xE0001000) (0004ms, 0907ms total)
T22B4 001:416 JLINK_IsHalted()  returns FALSE (0002ms, 0909ms total)
T22B4 001:420 JLINK_IsHalted() -- CPU_ReadMem(2 bytes @ 0x20000000)  returns TRUE (0005ms, 0912ms total)
T22B4 001:425 JLINK_ReadReg(R15 (PC))  returns 0x20000000 (0000ms, 0907ms total)
T22B4 001:425 JLINK_ClrBPEx(BPHandle = 0x00000008)  returns 0x00 (0000ms, 0907ms total)
T22B4 001:425 JLINK_ReadReg(R0)  returns 0x00000000 (0000ms, 0907ms total)
T22B4 001:425 JLINK_WriteReg(R0, 0x08001C00)  returns 0x00 (0000ms, 0907ms total)
T22B4 001:425 JLINK_WriteReg(R1, 0x00000400)  returns 0x00 (0000ms, 0907ms total)
T22B4 001:425 JLINK_WriteReg(R2, 0x000000FF)  returns 0x00 (0000ms, 0907ms total)
T22B4 001:425 JLINK_WriteReg(R3, 0x00000000)  returns 0x00 (0000ms, 0907ms total)
T22B4 001:425 JLINK_WriteReg(R4, 0x00000000)  returns 0x00 (0000ms, 0907ms total)
T22B4 001:425 JLINK_WriteReg(R5, 0x00000000)  returns 0x00 (0000ms, 0907ms total)
T22B4 001:425 JLINK_WriteReg(R6, 0x00000000)  returns 0x00 (0000ms, 0907ms total)
T22B4 001:425 JLINK_WriteReg(R7, 0x00000000)  returns 0x00 (0000ms, 0907ms total)
T22B4 001:425 JLINK_WriteReg(R8, 0x00000000)  returns 0x00 (0000ms, 0907ms total)
T22B4 001:425 JLINK_WriteReg(R9, 0x2000016C)  returns 0x00 (0000ms, 0907ms total)
T22B4 001:425 JLINK_WriteReg(R10, 0x00000000)  returns 0x00 (0000ms, 0907ms total)
T22B4 001:425 JLINK_WriteReg(R11, 0x00000000)  returns 0x00 (0000ms, 0907ms total)
T22B4 001:425 JLINK_WriteReg(R12, 0x00000000)  returns 0x00 (0000ms, 0907ms total)
T22B4 001:425 JLINK_WriteReg(R13 (SP), 0x20000800)  returns 0x00 (0000ms, 0907ms total)
T22B4 001:425 JLINK_WriteReg(R14, 0x20000001)  returns 0x00 (0000ms, 0907ms total)
T22B4 001:425 JLINK_WriteReg(R15 (PC), 0x20000020)  returns 0x00 (0000ms, 0907ms total)
T22B4 001:425 JLINK_WriteReg(XPSR, 0x01000000)  returns 0x00 (0000ms, 0907ms total)
T22B4 001:425 JLINK_WriteReg(MSP, 0x20000800)  returns 0x00 (0000ms, 0907ms total)
T22B4 001:425 JLINK_WriteReg(PSP, 0x20000800)  returns 0x00 (0000ms, 0907ms total)
T22B4 001:425 JLINK_WriteReg(CFBP, 0x00000000)  returns 0x00 (0000ms, 0907ms total)
T22B4 001:425 JLINK_SetBPEx(Addr = 0x20000000, Type = 0xFFFFFFF2)  returns 0x00000009 (0000ms, 0907ms total)
T22B4 001:425 JLINK_Go() -- CPU_ReadMem(4 bytes @ 0xE0001000) -- CPU_WriteMem(4 bytes @ 0xE0001000) (0005ms, 0912ms total)
T22B4 001:430 JLINK_IsHalted()  returns FALSE (0000ms, 0912ms total)
T22B4 001:433 JLINK_IsHalted() -- CPU_ReadMem(2 bytes @ 0x20000000)  returns TRUE (0005ms, 0917ms total)
T22B4 001:438 JLINK_ReadReg(R15 (PC))  returns 0x20000000 (0000ms, 0912ms total)
T22B4 001:438 JLINK_ClrBPEx(BPHandle = 0x00000009)  returns 0x00 (0000ms, 0912ms total)
T22B4 001:438 JLINK_ReadReg(R0)  returns 0x00000000 (0000ms, 0912ms total)
T22B4 001:438 JLINK_WriteReg(R0, 0x00000001)  returns 0x00 (0001ms, 0913ms total)
T22B4 001:439 JLINK_WriteReg(R1, 0x00000400)  returns 0x00 (0000ms, 0913ms total)
T22B4 001:439 JLINK_WriteReg(R2, 0x000000FF)  returns 0x00 (0000ms, 0913ms total)
T22B4 001:439 JLINK_WriteReg(R3, 0x00000000)  returns 0x00 (0000ms, 0913ms total)
T22B4 001:439 JLINK_WriteReg(R4, 0x00000000)  returns 0x00 (0000ms, 0913ms total)
T22B4 001:439 JLINK_WriteReg(R5, 0x00000000)  returns 0x00 (0000ms, 0913ms total)
T22B4 001:439 JLINK_WriteReg(R6, 0x00000000)  returns 0x00 (0000ms, 0913ms total)
T22B4 001:439 JLINK_WriteReg(R7, 0x00000000)  returns 0x00 (0000ms, 0913ms total)
T22B4 001:439 JLINK_WriteReg(R8, 0x00000000)  returns 0x00 (0000ms, 0913ms total)
T22B4 001:439 JLINK_WriteReg(R9, 0x2000016C)  returns 0x00 (0000ms, 0913ms total)
T22B4 001:439 JLINK_WriteReg(R10, 0x00000000)  returns 0x00 (0000ms, 0913ms total)
T22B4 001:439 JLINK_WriteReg(R11, 0x00000000)  returns 0x00 (0000ms, 0913ms total)
T22B4 001:439 JLINK_WriteReg(R12, 0x00000000)  returns 0x00 (0000ms, 0913ms total)
T22B4 001:439 JLINK_WriteReg(R13 (SP), 0x20000800)  returns 0x00 (0000ms, 0913ms total)
T22B4 001:439 JLINK_WriteReg(R14, 0x20000001)  returns 0x00 (0000ms, 0913ms total)
T22B4 001:439 JLINK_WriteReg(R15 (PC), 0x20000066)  returns 0x00 (0000ms, 0913ms total)
T22B4 001:439 JLINK_WriteReg(XPSR, 0x01000000)  returns 0x00 (0000ms, 0913ms total)
T22B4 001:439 JLINK_WriteReg(MSP, 0x20000800)  returns 0x00 (0000ms, 0913ms total)
T22B4 001:439 JLINK_WriteReg(PSP, 0x20000800)  returns 0x00 (0000ms, 0913ms total)
T22B4 001:439 JLINK_WriteReg(CFBP, 0x00000000)  returns 0x00 (0000ms, 0913ms total)
T22B4 001:439 JLINK_SetBPEx(Addr = 0x20000000, Type = 0xFFFFFFF2)  returns 0x0000000A (0000ms, 0913ms total)
T22B4 001:439 JLINK_Go() -- CPU_ReadMem(4 bytes @ 0xE0001000) -- CPU_WriteMem(4 bytes @ 0xE0001000) (0005ms, 0918ms total)
T22B4 001:444 JLINK_IsHalted() -- CPU_ReadMem(2 bytes @ 0x20000000)  returns TRUE (0004ms, 0922ms total)
T22B4 001:448 JLINK_ReadReg(R15 (PC))  returns 0x20000000 (0000ms, 0918ms total)
T22B4 001:448 JLINK_ClrBPEx(BPHandle = 0x0000000A)  returns 0x00 (0001ms, 0919ms total)
T22B4 001:449 JLINK_ReadReg(R0)  returns 0x00000000 (0000ms, 0919ms total)
T22B4 001:514 JLINK_WriteMem(0x20000000, 0x0170 Bytes, ...) - Data: 00 BE 0A E0 0D 78 2D 06 68 40 08 24 40 00 00 D3 ... -- CPU_WriteMem(368 bytes @ 0x20000000)  returns 0x170 (0006ms, 0925ms total)
T22B4 001:520 JLINK_WriteReg(R0, 0x08000000)  returns 0x00 (0000ms, 0925ms total)
T22B4 001:520 JLINK_WriteReg(R1, 0x007A1200)  returns 0x00 (0000ms, 0925ms total)
T22B4 001:520 JLINK_WriteReg(R2, 0x00000002)  returns 0x00 (0000ms, 0925ms total)
T22B4 001:520 JLINK_WriteReg(R3, 0x00000000)  returns 0x00 (0000ms, 0925ms total)
T22B4 001:520 JLINK_WriteReg(R4, 0x00000000)  returns 0x00 (0000ms, 0925ms total)
T22B4 001:521 JLINK_WriteReg(R5, 0x00000000)  returns 0x00 (0000ms, 0926ms total)
T22B4 001:521 JLINK_WriteReg(R6, 0x00000000)  returns 0x00 (0000ms, 0926ms total)
T22B4 001:521 JLINK_WriteReg(R7, 0x00000000)  returns 0x00 (0000ms, 0926ms total)
T22B4 001:521 JLINK_WriteReg(R8, 0x00000000)  returns 0x00 (0000ms, 0926ms total)
T22B4 001:521 JLINK_WriteReg(R9, 0x2000016C)  returns 0x00 (0000ms, 0926ms total)
T22B4 001:521 JLINK_WriteReg(R10, 0x00000000)  returns 0x00 (0000ms, 0926ms total)
T22B4 001:521 JLINK_WriteReg(R11, 0x00000000)  returns 0x00 (0000ms, 0926ms total)
T22B4 001:521 JLINK_WriteReg(R12, 0x00000000)  returns 0x00 (0000ms, 0926ms total)
T22B4 001:521 JLINK_WriteReg(R13 (SP), 0x20000800)  returns 0x00 (0000ms, 0926ms total)
T22B4 001:521 JLINK_WriteReg(R14, 0x20000001)  returns 0x00 (0000ms, 0926ms total)
T22B4 001:521 JLINK_WriteReg(R15 (PC), 0x20000038)  returns 0x00 (0000ms, 0926ms total)
T22B4 001:521 JLINK_WriteReg(XPSR, 0x01000000)  returns 0x00 (0000ms, 0926ms total)
T22B4 001:521 JLINK_WriteReg(MSP, 0x20000800)  returns 0x00 (0000ms, 0926ms total)
T22B4 001:521 JLINK_WriteReg(PSP, 0x20000800)  returns 0x00 (0000ms, 0926ms total)
T22B4 001:521 JLINK_WriteReg(CFBP, 0x00000000)  returns 0x00 (0001ms, 0927ms total)
T22B4 001:522 JLINK_SetBPEx(Addr = 0x20000000, Type = 0xFFFFFFF2) -- CPU_ReadMem(2 bytes @ 0x20000000)  returns 0x0000000B (0001ms, 0928ms total)
T22B4 001:523 JLINK_Go() -- CPU_WriteMem(2 bytes @ 0x20000000) -- CPU_ReadMem(4 bytes @ 0xE0001000) -- CPU_WriteMem(4 bytes @ 0xE0001000) (0005ms, 0933ms total)
T22B4 001:528 JLINK_IsHalted() -- CPU_ReadMem(2 bytes @ 0x20000000)  returns TRUE (0005ms, 0938ms total)
T22B4 001:533 JLINK_ReadReg(R15 (PC))  returns 0x20000000 (0001ms, 0934ms total)
T22B4 001:534 JLINK_ClrBPEx(BPHandle = 0x0000000B)  returns 0x00 (0000ms, 0934ms total)
T22B4 001:534 JLINK_ReadReg(R0)  returns 0x00000000 (0000ms, 0934ms total)
T22B4 001:534 JLINK_WriteMem(0x20000170, 0x0290 Bytes, ...) - Data: C0 06 00 20 A5 0D 00 08 41 0C 00 08 43 0C 00 08 ... -- CPU_WriteMem(656 bytes @ 0x20000170)  returns 0x290 (0009ms, 0943ms total)
T22B4 001:543 JLINK_WriteMem(0x20000400, 0x0170 Bytes, ...) - Data: 09 20 C9 03 C0 06 01 F0 B8 FB 00 20 78 60 29 5C ... -- CPU_WriteMem(368 bytes @ 0x20000400)  returns 0x170 (0005ms, 0948ms total)
T22B4 001:548 JLINK_WriteReg(R0, 0x08000000)  returns 0x00 (0001ms, 0949ms total)
T22B4 001:549 JLINK_WriteReg(R1, 0x00000400)  returns 0x00 (0000ms, 0949ms total)
T22B4 001:549 JLINK_WriteReg(R2, 0x20000170)  returns 0x00 (0000ms, 0949ms total)
T22B4 001:549 JLINK_WriteReg(R3, 0x00000000)  returns 0x00 (0000ms, 0949ms total)
T22B4 001:549 JLINK_WriteReg(R4, 0x00000000)  returns 0x00 (0000ms, 0949ms total)
T22B4 001:549 JLINK_WriteReg(R5, 0x00000000)  returns 0x00 (0000ms, 0949ms total)
T22B4 001:549 JLINK_WriteReg(R6, 0x00000000)  returns 0x00 (0000ms, 0949ms total)
T22B4 001:549 JLINK_WriteReg(R7, 0x00000000)  returns 0x00 (0000ms, 0949ms total)
T22B4 001:549 JLINK_WriteReg(R8, 0x00000000)  returns 0x00 (0000ms, 0949ms total)
T22B4 001:549 JLINK_WriteReg(R9, 0x2000016C)  returns 0x00 (0000ms, 0949ms total)
T22B4 001:549 JLINK_WriteReg(R10, 0x00000000)  returns 0x00 (0000ms, 0949ms total)
T22B4 001:549 JLINK_WriteReg(R11, 0x00000000)  returns 0x00 (0000ms, 0949ms total)
T22B4 001:549 JLINK_WriteReg(R12, 0x00000000)  returns 0x00 (0000ms, 0949ms total)
T22B4 001:549 JLINK_WriteReg(R13 (SP), 0x20000800)  returns 0x00 (0000ms, 0949ms total)
T22B4 001:549 JLINK_WriteReg(R14, 0x20000001)  returns 0x00 (0000ms, 0949ms total)
T22B4 001:549 JLINK_WriteReg(R15 (PC), 0x200000FA)  returns 0x00 (0000ms, 0949ms total)
T22B4 001:550 JLINK_WriteReg(XPSR, 0x01000000)  returns 0x00 (0000ms, 0949ms total)
T22B4 001:550 JLINK_WriteReg(MSP, 0x20000800)  returns 0x00 (0000ms, 0949ms total)
T22B4 001:550 JLINK_WriteReg(PSP, 0x20000800)  returns 0x00 (0000ms, 0949ms total)
T22B4 001:550 JLINK_WriteReg(CFBP, 0x00000000)  returns 0x00 (0000ms, 0949ms total)
T22B4 001:550 JLINK_SetBPEx(Addr = 0x20000000, Type = 0xFFFFFFF2)  returns 0x0000000C (0000ms, 0949ms total)
T22B4 001:550 JLINK_Go() -- CPU_ReadMem(4 bytes @ 0xE0001000) -- CPU_WriteMem(4 bytes @ 0xE0001000) (0004ms, 0953ms total)
T22B4 001:554 JLINK_IsHalted()  returns FALSE (0001ms, 0954ms total)
T22B4 001:604 JLINK_IsHalted() -- CPU_ReadMem(2 bytes @ 0x20000000)  returns TRUE (0005ms, 0958ms total)
T22B4 001:609 JLINK_ReadReg(R15 (PC))  returns 0x20000000 (0000ms, 0953ms total)
T22B4 001:609 JLINK_ClrBPEx(BPHandle = 0x0000000C)  returns 0x00 (0000ms, 0953ms total)
T22B4 001:609 JLINK_ReadReg(R0)  returns 0x00000000 (0000ms, 0953ms total)
T22B4 001:610 JLINK_WriteMem(0x20000170, 0x0290 Bytes, ...) - Data: 9B FD 28 46 00 F0 BB FD 01 21 28 46 00 F0 2D FD ... -- CPU_WriteMem(656 bytes @ 0x20000170)  returns 0x290 (0009ms, 0962ms total)
T22B4 001:619 JLINK_WriteMem(0x20000400, 0x0170 Bytes, ...) - Data: 28 46 00 F0 95 FC 4D 49 08 80 1C E7 30 B5 01 21 ... -- CPU_WriteMem(368 bytes @ 0x20000400)  returns 0x170 (0005ms, 0967ms total)
T22B4 001:624 JLINK_WriteReg(R0, 0x08000400)  returns 0x00 (0000ms, 0967ms total)
T22B4 001:624 JLINK_WriteReg(R1, 0x00000400)  returns 0x00 (0001ms, 0968ms total)
T22B4 001:625 JLINK_WriteReg(R2, 0x20000170)  returns 0x00 (0000ms, 0968ms total)
T22B4 001:625 JLINK_WriteReg(R3, 0x00000000)  returns 0x00 (0000ms, 0968ms total)
T22B4 001:625 JLINK_WriteReg(R4, 0x00000000)  returns 0x00 (0000ms, 0968ms total)
T22B4 001:625 JLINK_WriteReg(R5, 0x00000000)  returns 0x00 (0000ms, 0968ms total)
T22B4 001:625 JLINK_WriteReg(R6, 0x00000000)  returns 0x00 (0000ms, 0968ms total)
T22B4 001:625 JLINK_WriteReg(R7, 0x00000000)  returns 0x00 (0000ms, 0968ms total)
T22B4 001:625 JLINK_WriteReg(R8, 0x00000000)  returns 0x00 (0000ms, 0968ms total)
T22B4 001:625 JLINK_WriteReg(R9, 0x2000016C)  returns 0x00 (0000ms, 0968ms total)
T22B4 001:625 JLINK_WriteReg(R10, 0x00000000)  returns 0x00 (0000ms, 0968ms total)
T22B4 001:625 JLINK_WriteReg(R11, 0x00000000)  returns 0x00 (0000ms, 0968ms total)
T22B4 001:625 JLINK_WriteReg(R12, 0x00000000)  returns 0x00 (0000ms, 0968ms total)
T22B4 001:625 JLINK_WriteReg(R13 (SP), 0x20000800)  returns 0x00 (0000ms, 0968ms total)
T22B4 001:625 JLINK_WriteReg(R14, 0x20000001)  returns 0x00 (0000ms, 0968ms total)
T22B4 001:625 JLINK_WriteReg(R15 (PC), 0x200000FA)  returns 0x00 (0000ms, 0968ms total)
T22B4 001:625 JLINK_WriteReg(XPSR, 0x01000000)  returns 0x00 (0000ms, 0968ms total)
T22B4 001:625 JLINK_WriteReg(MSP, 0x20000800)  returns 0x00 (0000ms, 0968ms total)
T22B4 001:625 JLINK_WriteReg(PSP, 0x20000800)  returns 0x00 (0000ms, 0968ms total)
T22B4 001:626 JLINK_WriteReg(CFBP, 0x00000000)  returns 0x00 (0000ms, 0969ms total)
T22B4 001:626 JLINK_SetBPEx(Addr = 0x20000000, Type = 0xFFFFFFF2)  returns 0x0000000D (0000ms, 0969ms total)
T22B4 001:626 JLINK_Go() -- CPU_ReadMem(4 bytes @ 0xE0001000) -- CPU_WriteMem(4 bytes @ 0xE0001000) (0004ms, 0973ms total)
T22B4 001:631 JLINK_IsHalted()  returns FALSE (0001ms, 0975ms total)
T22B4 001:634 JLINK_IsHalted()  returns FALSE (0001ms, 0975ms total)
T22B4 001:637 JLINK_IsHalted()  returns FALSE (0001ms, 0975ms total)
T22B4 001:640 JLINK_IsHalted()  returns FALSE (0001ms, 0975ms total)
T22B4 001:646 JLINK_IsHalted()  returns FALSE (0001ms, 0975ms total)
T22B4 001:649 JLINK_IsHalted()  returns FALSE (0001ms, 0975ms total)
T22B4 001:656 JLINK_IsHalted()  returns FALSE (0001ms, 0975ms total)
T22B4 001:662 JLINK_IsHalted() -- CPU_ReadMem(2 bytes @ 0x20000000)  returns TRUE (0005ms, 0979ms total)
T22B4 001:667 JLINK_ReadReg(R15 (PC))  returns 0x20000000 (0000ms, 0974ms total)
T22B4 001:667 JLINK_ClrBPEx(BPHandle = 0x0000000D)  returns 0x00 (0000ms, 0974ms total)
T22B4 001:667 JLINK_ReadReg(R0)  returns 0x00000000 (0000ms, 0974ms total)
T22B4 001:668 JLINK_WriteMem(0x20000170, 0x0290 Bytes, ...) - Data: 69 46 C0 06 01 F0 9F F8 1C BD 7C B5 11 20 01 21 ... -- CPU_WriteMem(656 bytes @ 0x20000170)  returns 0x290 (0009ms, 0983ms total)
T22B4 001:677 JLINK_WriteMem(0x20000400, 0x0170 Bytes, ...) - Data: BA FF 70 BD 70 B5 FF 24 09 25 01 34 ED 06 21 46 ... -- CPU_WriteMem(368 bytes @ 0x20000400)  returns 0x170 (0006ms, 0989ms total)
T22B4 001:683 JLINK_WriteReg(R0, 0x08000800)  returns 0x00 (0000ms, 0989ms total)
T22B4 001:683 JLINK_WriteReg(R1, 0x00000400)  returns 0x00 (0000ms, 0989ms total)
T22B4 001:683 JLINK_WriteReg(R2, 0x20000170)  returns 0x00 (0000ms, 0989ms total)
T22B4 001:683 JLINK_WriteReg(R3, 0x00000000)  returns 0x00 (0000ms, 0989ms total)
T22B4 001:683 JLINK_WriteReg(R4, 0x00000000)  returns 0x00 (0000ms, 0989ms total)
T22B4 001:683 JLINK_WriteReg(R5, 0x00000000)  returns 0x00 (0000ms, 0989ms total)
T22B4 001:683 JLINK_WriteReg(R6, 0x00000000)  returns 0x00 (0000ms, 0989ms total)
T22B4 001:683 JLINK_WriteReg(R7, 0x00000000)  returns 0x00 (0000ms, 0989ms total)
T22B4 001:683 JLINK_WriteReg(R8, 0x00000000)  returns 0x00 (0000ms, 0989ms total)
T22B4 001:683 JLINK_WriteReg(R9, 0x2000016C)  returns 0x00 (0000ms, 0989ms total)
T22B4 001:683 JLINK_WriteReg(R10, 0x00000000)  returns 0x00 (0000ms, 0989ms total)
T22B4 001:683 JLINK_WriteReg(R11, 0x00000000)  returns 0x00 (0000ms, 0989ms total)
T22B4 001:683 JLINK_WriteReg(R12, 0x00000000)  returns 0x00 (0000ms, 0989ms total)
T22B4 001:683 JLINK_WriteReg(R13 (SP), 0x20000800)  returns 0x00 (0000ms, 0989ms total)
T22B4 001:683 JLINK_WriteReg(R14, 0x20000001)  returns 0x00 (0000ms, 0989ms total)
T22B4 001:684 JLINK_WriteReg(R15 (PC), 0x200000FA)  returns 0x00 (0000ms, 0990ms total)
T22B4 001:684 JLINK_WriteReg(XPSR, 0x01000000)  returns 0x00 (0000ms, 0990ms total)
T22B4 001:684 JLINK_WriteReg(MSP, 0x20000800)  returns 0x00 (0000ms, 0990ms total)
T22B4 001:684 JLINK_WriteReg(PSP, 0x20000800)  returns 0x00 (0000ms, 0990ms total)
T22B4 001:684 JLINK_WriteReg(CFBP, 0x00000000)  returns 0x00 (0000ms, 0990ms total)
T22B4 001:684 JLINK_SetBPEx(Addr = 0x20000000, Type = 0xFFFFFFF2)  returns 0x0000000E (0000ms, 0990ms total)
T22B4 001:684 JLINK_Go() -- CPU_ReadMem(4 bytes @ 0xE0001000) -- CPU_WriteMem(4 bytes @ 0xE0001000) (0004ms, 0994ms total)
T22B4 001:688 JLINK_IsHalted()  returns FALSE (0001ms, 0995ms total)
T22B4 001:718 JLINK_IsHalted() -- CPU_ReadMem(2 bytes @ 0x20000000)  returns TRUE (0005ms, 0999ms total)
T22B4 001:723 JLINK_ReadReg(R15 (PC))  returns 0x20000000 (0000ms, 0994ms total)
T22B4 001:723 JLINK_ClrBPEx(BPHandle = 0x0000000E)  returns 0x00 (0000ms, 0994ms total)
T22B4 001:723 JLINK_ReadReg(R0)  returns 0x00000000 (0000ms, 0994ms total)
T22B4 001:724 JLINK_WriteMem(0x20000170, 0x0290 Bytes, ...) - Data: 28 46 00 F0 9D FD 07 B0 F0 BD 70 B5 0B 4C 05 46 ... -- CPU_WriteMem(656 bytes @ 0x20000170)  returns 0x290 (0009ms, 1003ms total)
T22B4 001:733 JLINK_WriteMem(0x20000400, 0x0170 Bytes, ...) - Data: 01 22 D2 03 00 29 C1 68 01 D0 11 43 00 E0 91 43 ... -- CPU_WriteMem(368 bytes @ 0x20000400)  returns 0x170 (0005ms, 1008ms total)
T22B4 001:738 JLINK_WriteReg(R0, 0x08000C00)  returns 0x00 (0000ms, 1008ms total)
T22B4 001:738 JLINK_WriteReg(R1, 0x00000400)  returns 0x00 (0000ms, 1008ms total)
T22B4 001:738 JLINK_WriteReg(R2, 0x20000170)  returns 0x00 (0001ms, 1009ms total)
T22B4 001:739 JLINK_WriteReg(R3, 0x00000000)  returns 0x00 (0000ms, 1009ms total)
T22B4 001:739 JLINK_WriteReg(R4, 0x00000000)  returns 0x00 (0000ms, 1009ms total)
T22B4 001:739 JLINK_WriteReg(R5, 0x00000000)  returns 0x00 (0000ms, 1009ms total)
T22B4 001:739 JLINK_WriteReg(R6, 0x00000000)  returns 0x00 (0000ms, 1009ms total)
T22B4 001:739 JLINK_WriteReg(R7, 0x00000000)  returns 0x00 (0000ms, 1009ms total)
T22B4 001:739 JLINK_WriteReg(R8, 0x00000000)  returns 0x00 (0000ms, 1009ms total)
T22B4 001:739 JLINK_WriteReg(R9, 0x2000016C)  returns 0x00 (0000ms, 1009ms total)
T22B4 001:739 JLINK_WriteReg(R10, 0x00000000)  returns 0x00 (0000ms, 1009ms total)
T22B4 001:739 JLINK_WriteReg(R11, 0x00000000)  returns 0x00 (0000ms, 1009ms total)
T22B4 001:739 JLINK_WriteReg(R12, 0x00000000)  returns 0x00 (0000ms, 1009ms total)
T22B4 001:739 JLINK_WriteReg(R13 (SP), 0x20000800)  returns 0x00 (0000ms, 1009ms total)
T22B4 001:739 JLINK_WriteReg(R14, 0x20000001)  returns 0x00 (0000ms, 1009ms total)
T22B4 001:739 JLINK_WriteReg(R15 (PC), 0x200000FA)  returns 0x00 (0000ms, 1009ms total)
T22B4 001:739 JLINK_WriteReg(XPSR, 0x01000000)  returns 0x00 (0000ms, 1009ms total)
T22B4 001:739 JLINK_WriteReg(MSP, 0x20000800)  returns 0x00 (0000ms, 1009ms total)
T22B4 001:739 JLINK_WriteReg(PSP, 0x20000800)  returns 0x00 (0000ms, 1009ms total)
T22B4 001:739 JLINK_WriteReg(CFBP, 0x00000000)  returns 0x00 (0000ms, 1009ms total)
T22B4 001:739 JLINK_SetBPEx(Addr = 0x20000000, Type = 0xFFFFFFF2)  returns 0x0000000F (0001ms, 1010ms total)
T22B4 001:740 JLINK_Go() -- CPU_ReadMem(4 bytes @ 0xE0001000) -- CPU_WriteMem(4 bytes @ 0xE0001000) (0004ms, 1014ms total)
T22B4 001:744 JLINK_IsHalted()  returns FALSE (0002ms, 1016ms total)
T22B4 001:748 JLINK_IsHalted()  returns FALSE (0001ms, 1015ms total)
T22B4 001:751 JLINK_IsHalted()  returns FALSE (0000ms, 1014ms total)
T22B4 001:753 JLINK_IsHalted()  returns FALSE (0001ms, 1015ms total)
T22B4 001:756 JLINK_IsHalted()  returns FALSE (0001ms, 1015ms total)
T22B4 001:759 JLINK_IsHalted()  returns FALSE (0001ms, 1015ms total)
T22B4 001:773 JLINK_IsHalted()  returns FALSE (0001ms, 1015ms total)
T22B4 001:776 JLINK_IsHalted() -- CPU_ReadMem(2 bytes @ 0x20000000)  returns TRUE (0005ms, 1019ms total)
T22B4 001:781 JLINK_ReadReg(R15 (PC))  returns 0x20000000 (0000ms, 1014ms total)
T22B4 001:781 JLINK_ClrBPEx(BPHandle = 0x0000000F)  returns 0x00 (0000ms, 1014ms total)
T22B4 001:781 JLINK_ReadReg(R0)  returns 0x00000000 (0000ms, 1014ms total)
T22B4 001:782 JLINK_WriteMem(0x20000170, 0x0290 Bytes, ...) - Data: 04 D5 92 68 01 23 1B 06 9A 43 00 E0 12 68 0A 42 ... -- CPU_WriteMem(656 bytes @ 0x20000170)  returns 0x290 (0009ms, 1023ms total)
T22B4 001:791 JLINK_WriteMem(0x20000400, 0x0170 Bytes, ...) - Data: 97 49 12 04 00 28 48 6B 01 D0 10 43 00 E0 90 43 ... -- CPU_WriteMem(368 bytes @ 0x20000400)  returns 0x170 (0005ms, 1028ms total)
T22B4 001:796 JLINK_WriteReg(R0, 0x08001000)  returns 0x00 (0001ms, 1029ms total)
T22B4 001:797 JLINK_WriteReg(R1, 0x00000400)  returns 0x00 (0000ms, 1029ms total)
T22B4 001:797 JLINK_WriteReg(R2, 0x20000170)  returns 0x00 (0000ms, 1029ms total)
T22B4 001:797 JLINK_WriteReg(R3, 0x00000000)  returns 0x00 (0000ms, 1029ms total)
T22B4 001:797 JLINK_WriteReg(R4, 0x00000000)  returns 0x00 (0000ms, 1029ms total)
T22B4 001:797 JLINK_WriteReg(R5, 0x00000000)  returns 0x00 (0000ms, 1029ms total)
T22B4 001:797 JLINK_WriteReg(R6, 0x00000000)  returns 0x00 (0000ms, 1029ms total)
T22B4 001:797 JLINK_WriteReg(R7, 0x00000000)  returns 0x00 (0000ms, 1029ms total)
T22B4 001:797 JLINK_WriteReg(R8, 0x00000000)  returns 0x00 (0000ms, 1029ms total)
T22B4 001:797 JLINK_WriteReg(R9, 0x2000016C)  returns 0x00 (0000ms, 1029ms total)
T22B4 001:797 JLINK_WriteReg(R10, 0x00000000)  returns 0x00 (0000ms, 1029ms total)
T22B4 001:797 JLINK_WriteReg(R11, 0x00000000)  returns 0x00 (0000ms, 1029ms total)
T22B4 001:797 JLINK_WriteReg(R12, 0x00000000)  returns 0x00 (0000ms, 1029ms total)
T22B4 001:797 JLINK_WriteReg(R13 (SP), 0x20000800)  returns 0x00 (0000ms, 1029ms total)
T22B4 001:797 JLINK_WriteReg(R14, 0x20000001)  returns 0x00 (0000ms, 1029ms total)
T22B4 001:798 JLINK_WriteReg(R15 (PC), 0x200000FA)  returns 0x00 (0000ms, 1029ms total)
T22B4 001:798 JLINK_WriteReg(XPSR, 0x01000000)  returns 0x00 (0000ms, 1029ms total)
T22B4 001:798 JLINK_WriteReg(MSP, 0x20000800)  returns 0x00 (0000ms, 1029ms total)
T22B4 001:798 JLINK_WriteReg(PSP, 0x20000800)  returns 0x00 (0000ms, 1029ms total)
T22B4 001:798 JLINK_WriteReg(CFBP, 0x00000000)  returns 0x00 (0000ms, 1029ms total)
T22B4 001:798 JLINK_SetBPEx(Addr = 0x20000000, Type = 0xFFFFFFF2)  returns 0x00000010 (0000ms, 1029ms total)
T22B4 001:798 JLINK_Go() -- CPU_ReadMem(4 bytes @ 0xE0001000) -- CPU_WriteMem(4 bytes @ 0xE0001000) (0005ms, 1034ms total)
T22B4 001:803 JLINK_IsHalted()  returns FALSE (0001ms, 1035ms total)
T22B4 001:827 JLINK_IsHalted()  returns FALSE (0001ms, 1035ms total)
T22B4 001:830 JLINK_IsHalted()  returns FALSE (0001ms, 1035ms total)
T22B4 001:833 JLINK_IsHalted() -- CPU_ReadMem(2 bytes @ 0x20000000)  returns TRUE (0005ms, 1039ms total)
T22B4 001:838 JLINK_ReadReg(R15 (PC))  returns 0x20000000 (0000ms, 1034ms total)
T22B4 001:838 JLINK_ClrBPEx(BPHandle = 0x00000010)  returns 0x00 (0000ms, 1034ms total)
T22B4 001:838 JLINK_ReadReg(R0)  returns 0x00000000 (0000ms, 1034ms total)
T22B4 001:839 JLINK_WriteMem(0x20000170, 0x0290 Bytes, ...) - Data: 62 60 73 68 5B 05 5B 0F FB 5C DA 40 A2 60 33 6B ... -- CPU_WriteMem(656 bytes @ 0x20000170)  returns 0x290 (0009ms, 1043ms total)
T22B4 001:848 JLINK_WriteMem(0x20000400, 0x0170 Bytes, ...) - Data: 81 83 30 BD 00 21 01 80 41 80 81 80 C1 80 02 22 ... -- CPU_WriteMem(368 bytes @ 0x20000400)  returns 0x170 (0006ms, 1049ms total)
T22B4 001:854 JLINK_WriteReg(R0, 0x08001400)  returns 0x00 (0000ms, 1049ms total)
T22B4 001:854 JLINK_WriteReg(R1, 0x00000400)  returns 0x00 (0000ms, 1049ms total)
T22B4 001:854 JLINK_WriteReg(R2, 0x20000170)  returns 0x00 (0000ms, 1049ms total)
T22B4 001:854 JLINK_WriteReg(R3, 0x00000000)  returns 0x00 (0000ms, 1049ms total)
T22B4 001:854 JLINK_WriteReg(R4, 0x00000000)  returns 0x00 (0000ms, 1049ms total)
T22B4 001:854 JLINK_WriteReg(R5, 0x00000000)  returns 0x00 (0000ms, 1049ms total)
T22B4 001:854 JLINK_WriteReg(R6, 0x00000000)  returns 0x00 (0000ms, 1049ms total)
T22B4 001:854 JLINK_WriteReg(R7, 0x00000000)  returns 0x00 (0000ms, 1049ms total)
T22B4 001:854 JLINK_WriteReg(R8, 0x00000000)  returns 0x00 (0000ms, 1049ms total)
T22B4 001:854 JLINK_WriteReg(R9, 0x2000016C)  returns 0x00 (0000ms, 1049ms total)
T22B4 001:854 JLINK_WriteReg(R10, 0x00000000)  returns 0x00 (0000ms, 1049ms total)
T22B4 001:854 JLINK_WriteReg(R11, 0x00000000)  returns 0x00 (0000ms, 1049ms total)
T22B4 001:854 JLINK_WriteReg(R12, 0x00000000)  returns 0x00 (0000ms, 1049ms total)
T22B4 001:855 JLINK_WriteReg(R13 (SP), 0x20000800)  returns 0x00 (0000ms, 1050ms total)
